
T1D84 000:002 SEGGER J-Link V6.20i Log File (0000ms, 0002ms total)
T1D84 000:002 DLL Compiled: Nov 17 2017 17:46:22 (0000ms, 0002ms total)
T1D84 000:002 Logging started @ 2018-04-24 19:45 (0000ms, 0002ms total)
T1D84 000:002 JLINK_SetWarnOutHandler(...) (0000ms, 0002ms total)
T1D84 000:002 JLINK_OpenEx(...)
Firmware: J-Link OB-STM32F072-CortexM compiled Mar  8 2020 11:15:54
Hardware: V1.00
Feature(s): GDB, RDI, FlashBP, FlashDL, JFlash, RDDI
TELNET listener socket opened on port 19021WEBSRV 
Starting webserver (0024ms, 0026ms total)
T1D84 000:002 WEBSRV Webserver running on local port 19081 (0024ms, 0026ms total)
T1D84 000:002   returns O.K. (0024ms, 0026ms total)
T1D84 000:026 JLINK_GetEmuCaps()  returns 0xB8EA5A33 (0000ms, 0026ms total)
T1D84 000:026 JLINK_TIF_GetAvailable(...) (0001ms, 0027ms total)
T1D84 000:027 JLINK_SetErrorOutHandler(...) (0000ms, 0027ms total)
T1D84 000:027 JLINK_ExecCommand("ProjectFile = "F:\DeskManager\3、假肢手\1.丹阳手多次训练\limb\MDK-ARM\JLinkSettings.ini"", ...). C:\Program Files (x86)\SEGGER\JLink_V612a\JLinkDevices.xml evaluated successfully.  returns 0x00 (0111ms, 0138ms total)
T1D84 000:138 JLINK_ExecCommand("Device = STM32F407VETx", ...). Device "STM32F407VE" selected.  returns 0x00 (0001ms, 0139ms total)
T1D84 000:140 JLINK_ExecCommand("DisableConnectionTimeout", ...).   returns 0x01 (0000ms, 0139ms total)
T1D84 000:140 JLINK_GetHardwareVersion()  returns 0x2710 (0000ms, 0139ms total)
T1D84 000:140 JLINK_GetDLLVersion()  returns 62009 (0000ms, 0139ms total)
T1D84 000:140 JLINK_GetFirmwareString(...) (0000ms, 0139ms total)
T1D84 000:140 JLINK_GetDLLVersion()  returns 62009 (0000ms, 0139ms total)
T1D84 000:140 JLINK_GetCompileDateTime() (0000ms, 0139ms total)
T1D84 000:140 JLINK_GetFirmwareString(...) (0000ms, 0139ms total)
T1D84 000:140 JLINK_GetHardwareVersion()  returns 0x2710 (0000ms, 0139ms total)
T1D84 000:140 JLINK_TIF_Select(JLINKARM_TIF_SWD)  returns 0x00 (0004ms, 0143ms total)
T1D84 000:144 JLINK_SetSpeed(5000) (0001ms, 0144ms total)
T1D84 000:145 JLINK_GetId() >0x10B TIF>Found SW-DP with ID 0x2BA01477 >0x0D TIF> >0x28 TIF> >0x0D TIF> >0x28 TIF> >0x0D TIF> >0x28 TIF> >0x0D TIF> >0x28 TIF> >0x0D TIF> >0x21 TIF> >0x0D TIF> >0x28 TIF> >0x0D TIF> >0x28 TIF> >0x0D TIF> >0x28 TIF> >0x0D TIF> >0x21 TIF> >0x0D TIF> >0x21 TIF> >0x0D TIF> >0x28 TIF> >0x0D TIF> >0x21 TIF> >0x0D TIF> >0x21 TIF> >0x0D TIF> >0x28 TIF> >0x0D TIF> >0x21 TIF> >0x0D TIF> >0x21 TIF> >0x0D TIF> >0x28 TIF> >0x0D TIF> >0x21 TIF> >0x0D TIF> >0x21 TIF> >0x0D TIF> >0x28 TIF>
 >0x0D TIF> >0x21 TIF> >0x0D TIF> >0x21 TIF> >0x0D TIF> >0x28 TIF> >0x0D TIF> >0x21 TIF> >0x0D TIF> >0x21 TIF> >0x10B TIF>Found SW-DP with ID 0x2BA01477 >0x0D TIF> >0x28 TIF> >0x0D TIF> >0x28 TIF> >0x0D TIF> >0x28 TIF> >0x0D TIF> >0x28 TIF> >0x0D TIF> >0x21 TIF> >0x0D TIF> >0x28 TIF>Scanning AP map to find all available APs >0x0D TIF> >0x28 TIF> >0x0D TIF> >0x21 TIF> >0x0D TIF> >0x21 TIF> >0x0D TIF> >0x28 TIF> >0x0D TIF> >0x21 TIF> >0x0D TIF> >0x21 TIF>
AP[1]: Stopped AP scan as end of AP map has been reachedAP[0]: AHB-AP (IDR: 0x24770011)Iterating through AP map to find AHB-AP to use >0x42 TIF> >0x28 TIF> >0x0D TIF> >0x28 TIF> >0x0D TIF> >0x21 TIF> >0x0D TIF> >0x21 TIF> >0x42 TIF> >0x28 TIF> >0x0D TIF> >0x28 TIF> >0x0D TIF> >0x28 TIF> >0x0D TIF> >0x21 TIF> >0x0D TIF> >0x21 TIF>AP[0]: Core foundAP[0]: AHB-AP ROM base: 0xE00FF000 >0x0D TIF> >0x28 TIF> >0x0D TIF> >0x28 TIF> >0x0D TIF> >0x28 TIF> >0x0D TIF> >0x21 TIF> >0x0D TIF> >0x21 TIF>
CPUID register: 0x410FC241. Implementer code: 0x41 (ARM)Found Cortex-M4 r0p1, Little endian. -- CPU_ReadMem(4 bytes @ 0xE000EDF0) -- CPU_WriteMem(4 bytes @ 0xE000EDF0) -- CPU_ReadMem(4 bytes @ 0xE0002000)FPUnit: 6 code (BP) slots and 2 literal slots -- CPU_ReadMem(4 bytes @ 0xE000EDFC) -- CPU_WriteMem(4 bytes @ 0xE000EDFC) -- CPU_ReadMem(4 bytes @ 0xE0001000) -- CPU_WriteMem(4 bytes @ 0xE0001000) -- CPU_ReadMem(4 bytes @ 0xE000ED88) -- CPU_WriteMem(4 bytes @ 0xE000ED88)
 -- CPU_ReadMem(4 bytes @ 0xE000ED88) -- CPU_WriteMem(4 bytes @ 0xE000ED88)CoreSight components:ROMTbl[0] @ E00FF000 -- CPU_ReadMem(16 bytes @ 0xE00FF000) -- CPU_ReadMem(16 bytes @ 0xE000EFF0) -- CPU_ReadMem(16 bytes @ 0xE000EFE0)ROMTbl[0][0]: E000E000, CID: B105E00D, PID: 000BB00C SCS -- CPU_ReadMem(16 bytes @ 0xE0001FF0) -- CPU_ReadMem(16 bytes @ 0xE0001FE0)ROMTbl[0][1]: E0001000, CID: B105E00D, PID: 003BB002 DWT -- CPU_ReadMem(16 bytes @ 0xE0002FF0) -- CPU_ReadMem(16 bytes @ 0xE0002FE0)
ROMTbl[0][2]: E0002000, CID: B105E00D, PID: 002BB003 FPB -- CPU_ReadMem(16 bytes @ 0xE0000FF0) -- CPU_ReadMem(16 bytes @ 0xE0000FE0)ROMTbl[0][3]: E0000000, CID: B105E00D, PID: 003BB001 ITM -- CPU_ReadMem(16 bytes @ 0xE00FF010) -- CPU_ReadMem(16 bytes @ 0xE0040FF0) -- CPU_ReadMem(16 bytes @ 0xE0040FE0)ROMTbl[0][4]: E0040000, CID: B105900D, PID: 000BB9A1 TPIU -- CPU_ReadMem(16 bytes @ 0xE0041FF0) -- CPU_ReadMem(16 bytes @ 0xE0041FE0)ROMTbl[0][5]: E0041000, CID: B105900D, PID: 000BB925 ETM >0x0D TIF>
 >0x21 TIF>  returns 0x2BA01477 (0252ms, 0396ms total)
T1D84 000:397 JLINK_GetDLLVersion()  returns 62009 (0000ms, 0396ms total)
T1D84 000:397 JLINK_CORE_GetFound()  returns 0xE0000FF (0000ms, 0396ms total)
T1D84 000:397 JLINK_GetDebugInfo(0x100 = JLINKARM_ROM_TABLE_ADDR_INDEX) -- Value=0xE00FF000  returns 0x00 (0000ms, 0396ms total)
T1D84 000:397 JLINK_GetDebugInfo(0x100 = JLINKARM_ROM_TABLE_ADDR_INDEX) -- Value=0xE00FF000  returns 0x00 (0000ms, 0396ms total)
T1D84 000:397 JLINK_GetDebugInfo(0x101 = JLINKARM_DEBUG_INFO_ETM_ADDR_INDEX) -- Value=0xE0041000  returns 0x00 (0000ms, 0396ms total)
T1D84 000:397 JLINK_ReadMemEx(0xE0041FD0, 0x0020 Bytes, ..., Flags = 0x02000004) -- CPU_ReadMem(32 bytes @ 0xE0041FD0) - Data: 04 00 00 00 00 00 00 00 00 00 00 00 00 00 00 00 ...  returns 0x20 (0002ms, 0398ms total)
T1D84 000:399 JLINK_GetDebugInfo(0x102 = JLINKARM_DEBUG_INFO_MTB_ADDR_INDEX) -- Value=0x00000000  returns 0x00 (0000ms, 0398ms total)
T1D84 000:399 JLINK_GetDebugInfo(0x103 = JLINKARM_DEBUG_INFO_TPIU_ADDR_INDEX) -- Value=0xE0040000  returns 0x00 (0000ms, 0398ms total)
T1D84 000:399 JLINK_GetDebugInfo(0x104 = JLINKARM_DEBUG_INFO_ITM_ADDR_INDEX) -- Value=0xE0000000  returns 0x00 (0000ms, 0398ms total)
T1D84 000:399 JLINK_GetDebugInfo(0x105 = JLINKARM_DEBUG_INFO_DWT_ADDR_INDEX) -- Value=0xE0001000  returns 0x00 (0000ms, 0398ms total)
T1D84 000:399 JLINK_GetDebugInfo(0x106 = JLINKARM_DEBUG_INFO_FPB_ADDR_INDEX) -- Value=0xE0002000  returns 0x00 (0000ms, 0398ms total)
T1D84 000:399 JLINK_GetDebugInfo(0x107 = JLINKARM_DEBUG_INFO_NVIC_ADDR_INDEX) -- Value=0xE000E000  returns 0x00 (0000ms, 0398ms total)
T1D84 000:399 JLINK_GetDebugInfo(0x10C = JLINKARM_DEBUG_INFO_DBG_ADDR_INDEX) -- Value=0xE000EDF0  returns 0x00 (0000ms, 0398ms total)
T1D84 000:399 JLINK_ReadMemU32(0xE000EF40, 0x0001 Items, ...) -- CPU_ReadMem(4 bytes @ 0xE000EF40) - Data: 21 00 11 10  returns 0x01 (0001ms, 0399ms total)
T1D84 000:400 JLINK_ReadMemU32(0xE000EF44, 0x0001 Items, ...) -- CPU_ReadMem(4 bytes @ 0xE000EF44) - Data: 11 00 00 11  returns 0x01 (0001ms, 0400ms total)
T1D84 000:401 JLINK_ReadMemU32(0xE000ED00, 0x0001 Items, ...) -- CPU_ReadMem(4 bytes @ 0xE000ED00) - Data: 41 C2 0F 41  returns 0x01 (0001ms, 0401ms total)
T1D84 000:402 JLINK_GetDebugInfo(0x10F = JLINKARM_DEBUG_INFO_HAS_CORTEX_M_SECURITY_EXT_INDEX) -- Value=0x00000000  returns 0x00 (0000ms, 0401ms total)
T1D84 000:402 JLINK_SetResetType(JLINKARM_CM3_RESET_TYPE_NORMAL)  returns JLINKARM_CM3_RESET_TYPE_NORMAL (0000ms, 0401ms total)
T1D84 000:402 JLINK_Reset() -- CPU is running -- CPU_WriteMem(4 bytes @ 0xE000EDF0) -- CPU is running -- CPU_WriteMem(4 bytes @ 0xE000EDFC)Reset: Halt core after reset via DEMCR.VC_CORERESET. >0x35 TIF>Reset: Reset device via AIRCR.SYSRESETREQ. -- CPU is running -- CPU_WriteMem(4 bytes @ 0xE000ED0C) >0x0D TIF> >0x28 TIF> -- CPU_ReadMem(4 bytes @ 0xE000EDF0) -- CPU_ReadMem(4 bytes @ 0xE000EDF0) -- CPU is running -- CPU_WriteMem(4 bytes @ 0xE000EDF0) -- CPU is running -- CPU_WriteMem(4 bytes @ 0xE000EDFC)
 -- CPU_ReadMem(4 bytes @ 0xE000EDF0) -- CPU_WriteMem(4 bytes @ 0xE0002000) -- CPU_ReadMem(4 bytes @ 0xE000EDFC) -- CPU_ReadMem(4 bytes @ 0xE0001000) (0078ms, 0479ms total)
T1D84 000:480 JLINK_ReadReg(R15 (PC))  returns 0x0800019C (0000ms, 0479ms total)
T1D84 000:480 JLINK_ReadReg(XPSR)  returns 0x01000000 (0000ms, 0479ms total)
T1D84 000:480 JLINK_Halt()  returns 0x00 (0000ms, 0479ms total)
T1D84 000:480 JLINK_ReadMemU32(0xE000EDF0, 0x0001 Items, ...) -- CPU_ReadMem(4 bytes @ 0xE000EDF0) - Data: 03 00 03 00  returns 0x01 (0002ms, 0481ms total)
T1D84 000:482 JLINK_WriteU32(0xE000EDF0, 0xA05F0003) -- CPU_WriteMem(4 bytes @ 0xE000EDF0)  returns 0x00 (0001ms, 0482ms total)
T1D84 000:483 JLINK_WriteU32(0xE000EDFC, 0x01000000) -- CPU_WriteMem(4 bytes @ 0xE000EDFC)  returns 0x00 (0001ms, 0483ms total)
T1D84 000:484 JLINK_GetHWStatus(...)  returns 0x00 (0001ms, 0484ms total)
T1D84 000:485 JLINK_GetNumBPUnits(Type = 0xFFFFFF00)  returns 0x06 (0000ms, 0484ms total)
T1D84 000:485 JLINK_GetNumBPUnits(Type = 0xF0)  returns 0x2000 (0000ms, 0484ms total)
T1D84 000:485 JLINK_GetNumWPUnits()  returns 0x04 (0000ms, 0484ms total)
T1D84 000:485 JLINK_GetSpeed()  returns 0x7D0 (0000ms, 0484ms total)
T1D84 000:485 JLINK_ReadMemU32(0xE000E004, 0x0001 Items, ...) -- CPU_ReadMem(4 bytes @ 0xE000E004) - Data: 02 00 00 00  returns 0x01 (0002ms, 0486ms total)
T1D84 000:487 JLINK_ReadMemU32(0xE000E004, 0x0001 Items, ...) -- CPU_ReadMem(4 bytes @ 0xE000E004) - Data: 02 00 00 00  returns 0x01 (0001ms, 0487ms total)
T1D84 000:488 JLINK_WriteMemEx(0xE0001000, 0x001C Bytes, ..., Flags = 0x02000004) - Data: 01 00 00 00 00 00 00 00 00 00 00 00 00 00 00 00 ... -- CPU_WriteMem(28 bytes @ 0xE0001000)  returns 0x1C (0002ms, 0489ms total)
T1D84 000:490 JLINK_ReadReg(R15 (PC))  returns 0x0800019C (0000ms, 0489ms total)
T1D84 000:490 JLINK_ReadReg(XPSR)  returns 0x01000000 (0000ms, 0489ms total)
T1D84 000:490 JLINK_WriteU32(0xE0041FB0, 0xC5ACCE55) -- CPU_WriteMem(4 bytes @ 0xE0041FB0)  returns 0x00 (0001ms, 0490ms total)
T1D84 000:491 JLINK_ReadMemU32(0xE0041000, 0x0001 Items, ...) -- CPU_ReadMem(4 bytes @ 0xE0041000) - Data: 11 04 00 00  returns 0x01 (0001ms, 0491ms total)
T1D84 000:492 JLINK_WriteU32(0xE0041000, 0x00000410) -- CPU_WriteMem(4 bytes @ 0xE0041000)  returns 0x00 (0001ms, 0492ms total)
T1D84 000:496 JLINK_SWO_Control(JLINKARM_SWO_CMD_GET_SPEED_INFO, ...)  returns 0x00 (0002ms, 0494ms total)
T1D84 000:498 JLINK_SWO_Control(JLINKARM_SWO_CMD_STOP, ...)  returns 0x00 (0001ms, 0495ms total)
T1D84 000:499 JLINK_SWO_Control(JLINKARM_SWO_CMD_START, ...) -- UART -- 250000bps -- CPU_ReadMem(4 bytes @ 0xE0042004) -- CPU_WriteMem(4 bytes @ 0xE0042004)  returns 0x00 (0006ms, 0501ms total)
T1D84 000:506 JLINK_WriteU32(0xE0040004, 0x00000001) -- CPU_WriteMem(4 bytes @ 0xE0040004)  returns 0x00 (0000ms, 0501ms total)
T1D84 000:507 JLINK_WriteU32(0xE0040010, 0x0000029F)  returns 0x00 (0001ms, 0502ms total)
T1D84 000:508 JLINK_WriteU32(0xE00400F0, 0x00000002)  returns 0x00 (0000ms, 0502ms total)
T1D84 000:508 JLINK_WriteU32(0xE0040304, 0x00000000)  returns 0x00 (0000ms, 0502ms total)
T1D84 000:508 JLINK_WriteU32(0xE0000FB0, 0xC5ACCE55) -- CPU_WriteMem(4 bytes @ 0xE0000FB0)  returns 0x00 (0000ms, 0502ms total)
T1D84 000:508 JLINK_WriteU32(0xE0000E80, 0x0001000D)  returns 0x00 (0001ms, 0503ms total)
T1D84 000:509 JLINK_WriteU32(0xE0000E00, 0xFFFFFFFF)  returns 0x00 (0000ms, 0503ms total)
T1D84 000:509 JLINK_WriteU32(0xE0000E40, 0x00000008)  returns 0x00 (0000ms, 0503ms total)
T1D84 000:509 JLINK_WriteU32(0xE0001000, 0x00010A1F)  returns 0x00 (0000ms, 0503ms total)
T1D84 000:655 JLINK_SetResetType(JLINKARM_CM3_RESET_TYPE_NORMAL)  returns JLINKARM_CM3_RESET_TYPE_NORMAL (0000ms, 0503ms total)
T1D84 000:655 JLINK_Reset() -- CPU_WriteMem(4 bytes @ 0xE0000E00) -- CPU_WriteMem(4 bytes @ 0xE0000E40) -- CPU_WriteMem(4 bytes @ 0xE0000E80) -- CPU_WriteMem(4 bytes @ 0xE0001000) -- CPU_WriteMem(4 bytes @ 0xE0040010) -- CPU_WriteMem(4 bytes @ 0xE00400F0) -- CPU_WriteMem(4 bytes @ 0xE0040304) -- CPU_WriteMem(4 bytes @ 0xE000EDF0) -- CPU_WriteMem(4 bytes @ 0xE000EDFC)Reset: Halt core after reset via DEMCR.VC_CORERESET. >0x35 TIF>Reset: Reset device via AIRCR.SYSRESETREQ.
 -- CPU_WriteMem(4 bytes @ 0xE000ED0C) >0x0D TIF> >0x28 TIF> -- CPU_ReadMem(4 bytes @ 0xE000EDF0) -- CPU_ReadMem(4 bytes @ 0xE000EDF0) -- CPU_WriteMem(4 bytes @ 0xE000EDF0) -- CPU_WriteMem(4 bytes @ 0xE000EDFC) -- CPU_ReadMem(4 bytes @ 0xE000EDF0) -- CPU_WriteMem(4 bytes @ 0xE0002000) -- CPU_ReadMem(4 bytes @ 0xE000EDFC) -- CPU_ReadMem(4 bytes @ 0xE0001000) -- CPU_ReadMem(4 bytes @ 0xE0042004) (0083ms, 0586ms total)
T1D84 000:739 JLINK_WriteU32(0xE000EDFC, 0x01000000) -- CPU_WriteMem(4 bytes @ 0xE000EDFC)  returns 0x00 (0001ms, 0587ms total)
T1D84 000:741 JLINK_ReadReg(R15 (PC))  returns 0x0800019C (0000ms, 0587ms total)
T1D84 000:741 JLINK_ReadReg(XPSR)  returns 0x01000000 (0000ms, 0587ms total)
T1D84 000:962 JLINK_ReadMemEx(0x0800019C, 0x003C Bytes, ..., Flags = 0x02000000) -- CPU_ReadMem(128 bytes @ 0x08000180) -- Updating C cache (128 bytes @ 0x08000180) -- Read from C cache (60 bytes @ 0x0800019C) - Data: 06 48 80 47 06 48 00 47 FE E7 FE E7 FE E7 FE E7 ...  returns 0x3C (0002ms, 0589ms total)
T1D84 001:015 JLINK_WriteU32(0xE0001008, 0x00000000)  returns 0x00 (0000ms, 0589ms total)
T1D84 001:015 JLINK_WriteU32(0xE000100C, 0x00000000)  returns 0x00 (0000ms, 0589ms total)
T1D84 001:015 JLINK_WriteU32(0xE0001010, 0x00000000)  returns 0x00 (0000ms, 0589ms total)
T1D84 001:015 JLINK_WriteU32(0xE0001014, 0x00000000)  returns 0x00 (0000ms, 0589ms total)
T1D84 001:015 JLINK_WriteU32(0xE0001018, 0x00000000)  returns 0x00 (0000ms, 0589ms total)
T1D84 001:070 JLINK_ReadMemEx(0x40000400, 0x0010 Bytes, ..., Flags = 0x02000004) -- CPU_ReadMem(16 bytes @ 0x40000400) - Data: 00 00 00 00 00 00 00 00 00 00 00 00 00 00 00 00  returns 0x10 (0001ms, 0590ms total)
T1D84 001:071 JLINK_ReadMemEx(0x40000400, 0x0004 Bytes, ..., Flags = 0x02000004) -- CPU_ReadMem(4 bytes @ 0x40000400) - Data: 00 00 00 00  returns 0x04 (0001ms, 0591ms total)
T1D84 001:072 JLINK_ReadMemEx(0x40000404, 0x0004 Bytes, ..., Flags = 0x02000004) -- CPU_ReadMem(4 bytes @ 0x40000404) - Data: 00 00 00 00  returns 0x04 (0001ms, 0592ms total)
T1D84 001:073 JLINK_ReadMemEx(0x40000408, 0x0004 Bytes, ..., Flags = 0x02000004) -- CPU_ReadMem(4 bytes @ 0x40000408) - Data: 00 00 00 00  returns 0x04 (0001ms, 0593ms total)
T1D84 001:074 JLINK_ReadMemEx(0x4000040C, 0x0004 Bytes, ..., Flags = 0x02000004) -- CPU_ReadMem(4 bytes @ 0x4000040C) - Data: 00 00 00 00  returns 0x04 (0001ms, 0594ms total)
T1D84 001:075 JLINK_ReadMemEx(0x40000410, 0x0004 Bytes, ..., Flags = 0x02000004) -- CPU_ReadMem(4 bytes @ 0x40000410) - Data: 00 00 00 00  returns 0x04 (0001ms, 0595ms total)
T1D84 001:076 JLINK_ReadMemEx(0x40000410, 0x0004 Bytes, ..., Flags = 0x02000004) -- CPU_ReadMem(4 bytes @ 0x40000410) - Data: 00 00 00 00  returns 0x04 (0001ms, 0596ms total)
T1D84 001:077 JLINK_ReadMemEx(0x40000418, 0x0014 Bytes, ..., Flags = 0x02000004) -- CPU_ReadMem(20 bytes @ 0x40000418) - Data: 00 00 00 00 00 00 00 00 00 00 00 00 00 00 00 00 ...  returns 0x14 (0001ms, 0597ms total)
T1D84 001:078 JLINK_ReadMemEx(0x40000418, 0x0004 Bytes, ..., Flags = 0x02000004) -- CPU_ReadMem(4 bytes @ 0x40000418) - Data: 00 00 00 00  returns 0x04 (0001ms, 0598ms total)
T1D84 001:080 JLINK_ReadMemEx(0x4000041C, 0x0004 Bytes, ..., Flags = 0x02000004) -- CPU_ReadMem(4 bytes @ 0x4000041C) - Data: 00 00 00 00  returns 0x04 (0001ms, 0599ms total)
T1D84 001:081 JLINK_ReadMemEx(0x40000420, 0x0004 Bytes, ..., Flags = 0x02000004) -- CPU_ReadMem(4 bytes @ 0x40000420) - Data: 00 00 00 00  returns 0x04 (0001ms, 0600ms total)
T1D84 001:082 JLINK_ReadMemEx(0x40000424, 0x0004 Bytes, ..., Flags = 0x02000004) -- CPU_ReadMem(4 bytes @ 0x40000424) - Data: 00 00 00 00  returns 0x04 (0001ms, 0601ms total)
T1D84 001:083 JLINK_ReadMemEx(0x40000428, 0x0004 Bytes, ..., Flags = 0x02000004) -- CPU_ReadMem(4 bytes @ 0x40000428) - Data: 00 00 00 00  returns 0x04 (0001ms, 0602ms total)
T1D84 001:084 JLINK_ReadMemEx(0x4000042C, 0x0004 Bytes, ..., Flags = 0x02000004) -- CPU_ReadMem(4 bytes @ 0x4000042C) - Data: 00 00 00 00  returns 0x04 (0001ms, 0603ms total)
T1D84 001:085 JLINK_ReadMemEx(0x4000042C, 0x0004 Bytes, ..., Flags = 0x02000004) -- CPU_ReadMem(4 bytes @ 0x4000042C) - Data: 00 00 00 00  returns 0x04 (0001ms, 0604ms total)
T1D84 001:086 JLINK_ReadMemEx(0x40000434, 0x000C Bytes, ..., Flags = 0x02000004) -- CPU_ReadMem(12 bytes @ 0x40000434) - Data: 00 00 00 00 00 00 00 00 00 00 00 00  returns 0x0C (0001ms, 0605ms total)
T1D84 001:087 JLINK_ReadMemEx(0x40000434, 0x0004 Bytes, ..., Flags = 0x02000004) -- CPU_ReadMem(4 bytes @ 0x40000434) - Data: 00 00 00 00  returns 0x04 (0001ms, 0606ms total)
T1D84 001:088 JLINK_ReadMemEx(0x40000438, 0x0004 Bytes, ..., Flags = 0x02000004) -- CPU_ReadMem(4 bytes @ 0x40000438) - Data: 00 00 00 00  returns 0x04 (0001ms, 0607ms total)
T1D84 001:089 JLINK_ReadMemEx(0x4000043C, 0x0004 Bytes, ..., Flags = 0x02000004) -- CPU_ReadMem(4 bytes @ 0x4000043C) - Data: 00 00 00 00  returns 0x04 (0001ms, 0608ms total)
T1D84 001:091 JLINK_ReadMemEx(0x40000440, 0x0004 Bytes, ..., Flags = 0x02000004) -- CPU_ReadMem(4 bytes @ 0x40000440) - Data: 00 00 00 00  returns 0x04 (0001ms, 0609ms total)
T1D84 001:092 JLINK_ReadMemEx(0x40000440, 0x0004 Bytes, ..., Flags = 0x02000004) -- CPU_ReadMem(4 bytes @ 0x40000440) - Data: 00 00 00 00  returns 0x04 (0001ms, 0610ms total)
T1D84 001:093 JLINK_ReadMemEx(0x40000448, 0x0004 Bytes, ..., Flags = 0x02000004) -- CPU_ReadMem(4 bytes @ 0x40000448) - Data: 00 00 00 00  returns 0x04 (0001ms, 0611ms total)
T1D84 001:094 JLINK_ReadMemEx(0x40000448, 0x0004 Bytes, ..., Flags = 0x02000004) -- CPU_ReadMem(4 bytes @ 0x40000448) - Data: 00 00 00 00  returns 0x04 (0001ms, 0612ms total)
T1D84 001:095 JLINK_ReadMemEx(0x4000044C, 0x0004 Bytes, ..., Flags = 0x02000004) -- CPU_ReadMem(4 bytes @ 0x4000044C) - Data: 00 00 00 00  returns 0x04 (0001ms, 0613ms total)
T1D84 001:096 JLINK_ReadMemEx(0x4000044C, 0x0004 Bytes, ..., Flags = 0x02000004) -- CPU_ReadMem(4 bytes @ 0x4000044C) - Data: 00 00 00 00  returns 0x04 (0001ms, 0614ms total)
T1D84 001:119 JLINK_ReadMemEx(0x40001000, 0x0004 Bytes, ..., Flags = 0x02000004) -- CPU_ReadMem(4 bytes @ 0x40001000) - Data: 00 00 00 00  returns 0x04 (0001ms, 0615ms total)
T1D84 001:120 JLINK_ReadMemEx(0x40001000, 0x0004 Bytes, ..., Flags = 0x02000004) -- CPU_ReadMem(4 bytes @ 0x40001000) - Data: 00 00 00 00  returns 0x04 (0001ms, 0616ms total)
T1D84 001:121 JLINK_ReadMemEx(0x40001004, 0x0004 Bytes, ..., Flags = 0x02000004) -- CPU_ReadMem(4 bytes @ 0x40001004) - Data: 00 00 00 00  returns 0x04 (0001ms, 0617ms total)
T1D84 001:122 JLINK_ReadMemEx(0x40001004, 0x0004 Bytes, ..., Flags = 0x02000004) -- CPU_ReadMem(4 bytes @ 0x40001004) - Data: 00 00 00 00  returns 0x04 (0001ms, 0618ms total)
T1D84 001:124 JLINK_ReadMemEx(0x4000100C, 0x0004 Bytes, ..., Flags = 0x02000004) -- CPU_ReadMem(4 bytes @ 0x4000100C) - Data: 00 00 00 00  returns 0x04 (0001ms, 0619ms total)
T1D84 001:125 JLINK_ReadMemEx(0x4000100C, 0x0004 Bytes, ..., Flags = 0x02000004) -- CPU_ReadMem(4 bytes @ 0x4000100C) - Data: 00 00 00 00  returns 0x04 (0001ms, 0620ms total)
T1D84 001:126 JLINK_ReadMemEx(0x40001010, 0x0004 Bytes, ..., Flags = 0x02000004) -- CPU_ReadMem(4 bytes @ 0x40001010) - Data: 00 00 00 00  returns 0x04 (0001ms, 0621ms total)
T1D84 001:127 JLINK_ReadMemEx(0x40001010, 0x0004 Bytes, ..., Flags = 0x02000004) -- CPU_ReadMem(4 bytes @ 0x40001010) - Data: 00 00 00 00  returns 0x04 (0001ms, 0622ms total)
T1D84 001:128 JLINK_ReadMemEx(0x40001024, 0x0008 Bytes, ..., Flags = 0x02000004) -- CPU_ReadMem(8 bytes @ 0x40001024) - Data: 00 00 00 00 00 00 00 00  returns 0x08 (0001ms, 0623ms total)
T1D84 001:129 JLINK_ReadMemEx(0x40001024, 0x0004 Bytes, ..., Flags = 0x02000004) -- CPU_ReadMem(4 bytes @ 0x40001024) - Data: 00 00 00 00  returns 0x04 (0001ms, 0624ms total)
T1D84 001:130 JLINK_ReadMemEx(0x40001028, 0x0004 Bytes, ..., Flags = 0x02000004) -- CPU_ReadMem(4 bytes @ 0x40001028) - Data: 00 00 00 00  returns 0x04 (0001ms, 0625ms total)
T1D84 001:131 JLINK_ReadMemEx(0x4000102C, 0x0004 Bytes, ..., Flags = 0x02000004) -- CPU_ReadMem(4 bytes @ 0x4000102C) - Data: 00 00 00 00  returns 0x04 (0001ms, 0626ms total)
T1D84 001:132 JLINK_ReadMemEx(0x4000102C, 0x0004 Bytes, ..., Flags = 0x02000004) -- CPU_ReadMem(4 bytes @ 0x4000102C) - Data: 00 00 00 00  returns 0x04 (0001ms, 0627ms total)
T1D84 002:114 JLINK_ReadReg(R0)  returns 0x00000000 (0002ms, 0629ms total)
T1D84 002:116 JLINK_ReadReg(R1)  returns 0x00000000 (0000ms, 0629ms total)
T1D84 002:116 JLINK_ReadReg(R2)  returns 0x00000000 (0000ms, 0629ms total)
T1D84 002:116 JLINK_ReadReg(R3)  returns 0x00000000 (0000ms, 0629ms total)
T1D84 002:116 JLINK_ReadReg(R4)  returns 0x00000000 (0000ms, 0629ms total)
T1D84 002:116 JLINK_ReadReg(R5)  returns 0x00000000 (0000ms, 0629ms total)
T1D84 002:116 JLINK_ReadReg(R6)  returns 0x00000000 (0000ms, 0629ms total)
T1D84 002:116 JLINK_ReadReg(R7)  returns 0x00000000 (0000ms, 0629ms total)
T1D84 002:116 JLINK_ReadReg(R8)  returns 0x00000000 (0000ms, 0629ms total)
T1D84 002:116 JLINK_ReadReg(R9)  returns 0x00000000 (0000ms, 0629ms total)
T1D84 002:116 JLINK_ReadReg(R10)  returns 0x00000000 (0000ms, 0629ms total)
T1D84 002:116 JLINK_ReadReg(R11)  returns 0x00000000 (0000ms, 0629ms total)
T1D84 002:116 JLINK_ReadReg(R12)  returns 0x00000000 (0000ms, 0629ms total)
T1D84 002:116 JLINK_ReadReg(R13 (SP))  returns 0x2001BE00 (0000ms, 0629ms total)
T1D84 002:116 JLINK_ReadReg(R14)  returns 0xFFFFFFFF (0000ms, 0629ms total)
T1D84 002:116 JLINK_ReadReg(R15 (PC))  returns 0x0800019C (0000ms, 0629ms total)
T1D84 002:116 JLINK_ReadReg(XPSR)  returns 0x01000000 (0000ms, 0629ms total)
T1D84 002:116 JLINK_ReadReg(MSP)  returns 0x2001BE00 (0000ms, 0629ms total)
T1D84 002:116 JLINK_ReadReg(PSP)  returns 0x00000000 (0000ms, 0629ms total)
T1D84 002:116 JLINK_ReadReg(CFBP)  returns 0x00000000 (0000ms, 0629ms total)
T1D84 002:116 JLINK_ReadReg(FPSCR)  returns 0x00000000 (0008ms, 0637ms total)
T1D84 002:125 JLINK_ReadReg(FPS0)  returns 0x00000000 (0000ms, 0637ms total)
T1D84 002:125 JLINK_ReadReg(FPS1)  returns 0x00000000 (0000ms, 0637ms total)
T1D84 002:125 JLINK_ReadReg(FPS2)  returns 0x00000000 (0000ms, 0637ms total)
T1D84 002:125 JLINK_ReadReg(FPS3)  returns 0x00000000 (0000ms, 0637ms total)
T1D84 002:125 JLINK_ReadReg(FPS4)  returns 0x00000000 (0000ms, 0637ms total)
T1D84 002:125 JLINK_ReadReg(FPS5)  returns 0x00000000 (0000ms, 0637ms total)
T1D84 002:125 JLINK_ReadReg(FPS6)  returns 0x00000000 (0000ms, 0637ms total)
T1D84 002:125 JLINK_ReadReg(FPS7)  returns 0x00000000 (0000ms, 0637ms total)
T1D84 002:125 JLINK_ReadReg(FPS8)  returns 0x00000000 (0000ms, 0637ms total)
T1D84 002:125 JLINK_ReadReg(FPS9)  returns 0x00000000 (0000ms, 0637ms total)
T1D84 002:125 JLINK_ReadReg(FPS10)  returns 0x00000000 (0000ms, 0637ms total)
T1D84 002:125 JLINK_ReadReg(FPS11)  returns 0x00000000 (0000ms, 0637ms total)
T1D84 002:125 JLINK_ReadReg(FPS12)  returns 0x00000000 (0000ms, 0637ms total)
T1D84 002:125 JLINK_ReadReg(FPS13)  returns 0x00000000 (0000ms, 0637ms total)
T1D84 002:125 JLINK_ReadReg(FPS14)  returns 0x00000000 (0000ms, 0637ms total)
T1D84 002:125 JLINK_ReadReg(FPS15)  returns 0x00000000 (0000ms, 0637ms total)
T1D84 002:125 JLINK_ReadReg(FPS16)  returns 0x00000000 (0000ms, 0637ms total)
T1D84 002:125 JLINK_ReadReg(FPS17)  returns 0x00000000 (0000ms, 0637ms total)
T1D84 002:125 JLINK_ReadReg(FPS18)  returns 0x00000000 (0000ms, 0637ms total)
T1D84 002:125 JLINK_ReadReg(FPS19)  returns 0x00000000 (0000ms, 0637ms total)
T1D84 002:125 JLINK_ReadReg(FPS20)  returns 0x00000000 (0000ms, 0637ms total)
T1D84 002:125 JLINK_ReadReg(FPS21)  returns 0x00000000 (0000ms, 0637ms total)
T1D84 002:125 JLINK_ReadReg(FPS22)  returns 0x00000000 (0000ms, 0637ms total)
T1D84 002:125 JLINK_ReadReg(FPS23)  returns 0x00000000 (0000ms, 0637ms total)
T1D84 002:125 JLINK_ReadReg(FPS24)  returns 0x00000000 (0000ms, 0637ms total)
T1D84 002:125 JLINK_ReadReg(FPS25)  returns 0x00000000 (0000ms, 0637ms total)
T1D84 002:125 JLINK_ReadReg(FPS26)  returns 0x00000000 (0000ms, 0637ms total)
T1D84 002:125 JLINK_ReadReg(FPS27)  returns 0x00000000 (0000ms, 0637ms total)
T1D84 002:125 JLINK_ReadReg(FPS28)  returns 0x00000000 (0000ms, 0637ms total)
T1D84 002:125 JLINK_ReadReg(FPS29)  returns 0x00000000 (0000ms, 0637ms total)
T1D84 002:125 JLINK_ReadReg(FPS30)  returns 0x00000000 (0000ms, 0637ms total)
T1D84 002:125 JLINK_ReadReg(FPS31)  returns 0x00000000 (0000ms, 0637ms total)
T1D84 002:136 JLINK_ReadMemEx(0x20000036, 0x0001 Bytes, ..., Flags = 0x02000000) -- CPU_ReadMem(64 bytes @ 0x20000000) -- Updating C cache (64 bytes @ 0x20000000) -- Read from C cache (1 bytes @ 0x20000036) - Data: 00  returns 0x01 (0002ms, 0639ms total)
T1D84 002:145 JLINK_ReadMemEx(0x20000037, 0x0001 Bytes, ..., Flags = 0x02000000) -- Read from C cache (1 bytes @ 0x20000037) - Data: 00  returns 0x01 (0000ms, 0639ms total)
T1D84 002:162 JLINK_ReadMemEx(0x2000003C, 0x0002 Bytes, ..., Flags = 0x02000000) -- Read from C cache (2 bytes @ 0x2000003C) - Data: 00 00  returns 0x02 (0000ms, 0639ms total)
T1D84 002:167 JLINK_ReadMemEx(0x20000014, 0x0002 Bytes, ..., Flags = 0x02000000) -- Read from C cache (2 bytes @ 0x20000014) - Data: 00 00  returns 0x02 (0000ms, 0639ms total)
T1D84 002:172 JLINK_ReadMemEx(0x20000000, 0x0001 Bytes, ..., Flags = 0x02000000) -- Read from C cache (1 bytes @ 0x20000000) - Data: 00  returns 0x01 (0000ms, 0639ms total)
T1D84 002:177 JLINK_ReadMemEx(0x2000011C, 0x0020 Bytes, ..., Flags = 0x02000000) -- CPU_ReadMem(64 bytes @ 0x20000100) -- Updating C cache (64 bytes @ 0x20000100) -- Read from C cache (32 bytes @ 0x2000011C) - Data: 00 00 00 00 00 00 00 00 00 00 00 00 00 00 00 00 ...  returns 0x20 (0001ms, 0640ms total)
T1D84 002:183 JLINK_ReadMemEx(0x20000060, 0x0002 Bytes, ..., Flags = 0x02000000) -- CPU_ReadMem(64 bytes @ 0x20000040) -- Updating C cache (64 bytes @ 0x20000040) -- Read from C cache (2 bytes @ 0x20000060) - Data: 00 00  returns 0x02 (0002ms, 0642ms total)
T1D84 002:190 JLINK_ReadMemEx(0x2000006C, 0x0001 Bytes, ..., Flags = 0x02000000) -- Read from C cache (1 bytes @ 0x2000006C) - Data: 01  returns 0x01 (0000ms, 0642ms total)
T2170 002:212 JLINK_ReadMemEx(0x0800019C, 0x0002 Bytes, ..., Flags = 0x02000000) -- Read from C cache (2 bytes @ 0x0800019C) - Data: 06 48  returns 0x02 (0000ms, 0642ms total)
T2170 002:212 JLINK_SetBPEx(Addr = 0x080047E0, Type = 0xFFFFFFF2)  returns 0x00000001 (0000ms, 0642ms total)
T2170 002:212 JLINK_ReadMemU32(0xE0001004, 0x0001 Items, ...) - Data: 00 00 00 00  returns 0x01 (0000ms, 0642ms total)
T2170 002:212 JLINK_WriteU32(0xE0001004, 0x000003FF)  returns 0x00 (0000ms, 0642ms total)
T2170 002:212 JLINK_WriteU32(0xE0001000, 0x00410A1F)  returns 0x00 (0000ms, 0642ms total)
T2170 002:212 JLINK_WriteU32(0xE0000E80, 0x0001000F)  returns 0x00 (0000ms, 0642ms total)
T2170 002:212 JLINK_SWO_Control(JLINKARM_SWO_CMD_GET_NUM_BYTES, ...)  returns 0x00 (0000ms, 0642ms total)
T2170 002:212 JLINK_Go() -- CPU_WriteMem(4 bytes @ 0xE0002000) -- CPU_WriteMem(4 bytes @ 0xE0001000) -- CPU_ReadMem(4 bytes @ 0xE0001000) -- CPU_WriteMem(4 bytes @ 0xE0000E80) -- CPU_WriteMem(4 bytes @ 0xE0001008) -- CPU_WriteMem(4 bytes @ 0xE000100C) -- CPU_WriteMem(4 bytes @ 0xE0001010) -- CPU_WriteMem(4 bytes @ 0xE0001014) -- CPU_WriteMem(4 bytes @ 0xE0001018) -- CPU_WriteMem(4 bytes @ 0xE0002008) -- CPU_WriteMem(4 bytes @ 0xE000200C) -- CPU_WriteMem(4 bytes @ 0xE0002010)
 -- CPU_WriteMem(4 bytes @ 0xE0002014) -- CPU_WriteMem(4 bytes @ 0xE0002018) -- CPU_WriteMem(4 bytes @ 0xE000201C) -- CPU_WriteMem(4 bytes @ 0xE0001004) (0017ms, 0659ms total)
T2170 002:230 JLINK_WriteU32(0xE0001000, 0x00010A1F) -- CPU is running -- CPU_WriteMem(4 bytes @ 0xE0001000)  returns 0x00 (0001ms, 0660ms total)
T2170 002:331 JLINK_SWO_Read(..., Offset = 0x00, NumBytes = 0x400000) - Data:  NumBytesRead = 0x00 (0000ms, 0660ms total)
T2170 002:333 JLINK_SWO_Control(JLINKARM_SWO_CMD_FLUSH, ...)  returns 0x00 (0000ms, 0660ms total)
T2170 002:333 JLINK_IsHalted()  returns TRUE (0006ms, 0666ms total)
T2170 002:339 JLINK_Halt()  returns 0x00 (0000ms, 0660ms total)
T2170 002:339 JLINK_IsHalted()  returns TRUE (0000ms, 0660ms total)
T2170 002:339 JLINK_IsHalted()  returns TRUE (0000ms, 0660ms total)
T2170 002:339 JLINK_IsHalted()  returns TRUE (0000ms, 0660ms total)
T2170 002:339 JLINK_ReadReg(R15 (PC))  returns 0x080047E0 (0000ms, 0660ms total)
T2170 002:339 JLINK_ReadReg(XPSR)  returns 0x61000000 (0000ms, 0660ms total)
T2170 002:339 JLINK_SWO_Read(..., Offset = 0x00, NumBytes = 0x400000) - Data:  NumBytesRead = 0x00 (0000ms, 0660ms total)
T2170 002:342 JLINK_SWO_Control(JLINKARM_SWO_CMD_FLUSH, ...)  returns 0x00 (0000ms, 0660ms total)
T2170 002:342 JLINK_ClrBPEx(BPHandle = 0x00000001)  returns 0x00 (0000ms, 0660ms total)
T2170 002:342 JLINK_ReadMemU32(0xE000ED30, 0x0001 Items, ...) -- CPU_ReadMem(4 bytes @ 0xE000ED30) - Data: 02 00 00 00  returns 0x01 (0002ms, 0662ms total)
T2170 002:344 JLINK_ReadMemU32(0xE0001028, 0x0001 Items, ...) -- CPU_ReadMem(4 bytes @ 0xE0001028) - Data: 00 00 00 00  returns 0x01 (0002ms, 0664ms total)
T2170 002:346 JLINK_ReadMemU32(0xE0001038, 0x0001 Items, ...) -- CPU_ReadMem(4 bytes @ 0xE0001038) - Data: 00 02 00 00  returns 0x01 (0002ms, 0666ms total)
T2170 002:348 JLINK_ReadMemU32(0xE0001048, 0x0001 Items, ...) -- CPU_ReadMem(4 bytes @ 0xE0001048) - Data: 00 00 00 00  returns 0x01 (0002ms, 0668ms total)
T2170 002:350 JLINK_ReadMemU32(0xE0001058, 0x0001 Items, ...) -- CPU_ReadMem(4 bytes @ 0xE0001058) - Data: 00 00 00 00  returns 0x01 (0002ms, 0670ms total)
T2170 002:354 JLINK_ReadReg(R0)  returns 0x080047E1 (0000ms, 0670ms total)
T2170 002:354 JLINK_ReadReg(R1)  returns 0x1000C840 (0000ms, 0670ms total)
T2170 002:354 JLINK_ReadReg(R2)  returns 0x00000000 (0000ms, 0670ms total)
T2170 002:354 JLINK_ReadReg(R3)  returns 0x08003F05 (0000ms, 0670ms total)
T2170 002:354 JLINK_ReadReg(R4)  returns 0x08004CBC (0000ms, 0670ms total)
T2170 002:354 JLINK_ReadReg(R5)  returns 0x08004CBC (0000ms, 0670ms total)
T2170 002:354 JLINK_ReadReg(R6)  returns 0x00000000 (0000ms, 0670ms total)
T2170 002:354 JLINK_ReadReg(R7)  returns 0x00000000 (0000ms, 0670ms total)
T2170 002:354 JLINK_ReadReg(R8)  returns 0x00000000 (0000ms, 0670ms total)
T2170 002:354 JLINK_ReadReg(R9)  returns 0x00000000 (0000ms, 0670ms total)
T2170 002:354 JLINK_ReadReg(R10)  returns 0x00000000 (0000ms, 0670ms total)
T2170 002:354 JLINK_ReadReg(R11)  returns 0x00000000 (0000ms, 0670ms total)
T2170 002:354 JLINK_ReadReg(R12)  returns 0x00000000 (0000ms, 0670ms total)
T2170 002:354 JLINK_ReadReg(R13 (SP))  returns 0x2001BE00 (0000ms, 0670ms total)
T2170 002:354 JLINK_ReadReg(R14)  returns 0x0800080D (0000ms, 0670ms total)
T2170 002:354 JLINK_ReadReg(R15 (PC))  returns 0x080047E0 (0000ms, 0670ms total)
T2170 002:354 JLINK_ReadReg(XPSR)  returns 0x61000000 (0000ms, 0670ms total)
T2170 002:355 JLINK_ReadReg(MSP)  returns 0x2001BE00 (0000ms, 0670ms total)
T2170 002:355 JLINK_ReadReg(PSP)  returns 0x00000000 (0000ms, 0670ms total)
T2170 002:355 JLINK_ReadReg(CFBP)  returns 0x00000000 (0000ms, 0670ms total)
T2170 002:355 JLINK_ReadReg(FPSCR)  returns 0x00000000 (0009ms, 0679ms total)
T2170 002:365 JLINK_ReadReg(FPS0)  returns 0x00000000 (0000ms, 0679ms total)
T2170 002:365 JLINK_ReadReg(FPS1)  returns 0x00000000 (0000ms, 0679ms total)
T2170 002:365 JLINK_ReadReg(FPS2)  returns 0x00000000 (0000ms, 0679ms total)
T2170 002:365 JLINK_ReadReg(FPS3)  returns 0x00000000 (0000ms, 0679ms total)
T2170 002:365 JLINK_ReadReg(FPS4)  returns 0x00000000 (0000ms, 0679ms total)
T2170 002:365 JLINK_ReadReg(FPS5)  returns 0x00000000 (0000ms, 0679ms total)
T2170 002:365 JLINK_ReadReg(FPS6)  returns 0x00000000 (0000ms, 0679ms total)
T2170 002:365 JLINK_ReadReg(FPS7)  returns 0x00000000 (0000ms, 0679ms total)
T2170 002:365 JLINK_ReadReg(FPS8)  returns 0x00000000 (0000ms, 0679ms total)
T2170 002:365 JLINK_ReadReg(FPS9)  returns 0x00000000 (0000ms, 0679ms total)
T2170 002:366 JLINK_ReadReg(FPS10)  returns 0x00000000 (0000ms, 0679ms total)
T2170 002:366 JLINK_ReadReg(FPS11)  returns 0x00000000 (0000ms, 0679ms total)
T2170 002:366 JLINK_ReadReg(FPS12)  returns 0x00000000 (0000ms, 0679ms total)
T2170 002:366 JLINK_ReadReg(FPS13)  returns 0x00000000 (0000ms, 0679ms total)
T2170 002:366 JLINK_ReadReg(FPS14)  returns 0x00000000 (0000ms, 0679ms total)
T2170 002:366 JLINK_ReadReg(FPS15)  returns 0x00000000 (0000ms, 0679ms total)
T2170 002:366 JLINK_ReadReg(FPS16)  returns 0x00000000 (0000ms, 0679ms total)
T2170 002:366 JLINK_ReadReg(FPS17)  returns 0x00000000 (0000ms, 0679ms total)
T2170 002:366 JLINK_ReadReg(FPS18)  returns 0x00000000 (0000ms, 0679ms total)
T2170 002:366 JLINK_ReadReg(FPS19)  returns 0x00000000 (0000ms, 0679ms total)
T2170 002:366 JLINK_ReadReg(FPS20)  returns 0x00000000 (0000ms, 0679ms total)
T2170 002:366 JLINK_ReadReg(FPS21)  returns 0x00000000 (0000ms, 0679ms total)
T2170 002:366 JLINK_ReadReg(FPS22)  returns 0x00000000 (0000ms, 0679ms total)
T2170 002:366 JLINK_ReadReg(FPS23)  returns 0x00000000 (0000ms, 0679ms total)
T2170 002:366 JLINK_ReadReg(FPS24)  returns 0x00000000 (0000ms, 0679ms total)
T2170 002:366 JLINK_ReadReg(FPS25)  returns 0x00000000 (0000ms, 0679ms total)
T2170 002:366 JLINK_ReadReg(FPS26)  returns 0x00000000 (0000ms, 0679ms total)
T2170 002:366 JLINK_ReadReg(FPS27)  returns 0x00000000 (0000ms, 0679ms total)
T2170 002:366 JLINK_ReadReg(FPS28)  returns 0x00000000 (0000ms, 0679ms total)
T2170 002:366 JLINK_ReadReg(FPS29)  returns 0x00000000 (0000ms, 0679ms total)
T2170 002:366 JLINK_ReadReg(FPS30)  returns 0x00000000 (0000ms, 0679ms total)
T2170 002:366 JLINK_ReadReg(FPS31)  returns 0x00000000 (0000ms, 0679ms total)
T1D84 002:368 JLINK_ReadMemEx(0x00000000, 0x0004 Bytes, ..., Flags = 0x02000000) -- CPU_ReadMem(4 bytes @ 0x00000004) -- CPU_ReadMem(64 bytes @ 0x08000000) -- Updating C cache (64 bytes @ 0x08000000) -- Read from C cache (4 bytes @ 0x08000000) - Data: 00 BE 01 20  returns 0x04 (0004ms, 0683ms total)
T1D84 002:372 JLINK_ReadMemU32(0xE0001004, 0x0001 Items, ...) -- CPU_ReadMem(4 bytes @ 0xE0001004) - Data: 2D CE 03 00  returns 0x01 (0002ms, 0685ms total)
T1D84 002:374 JLINK_ReadMemEx(0x20000036, 0x0001 Bytes, ..., Flags = 0x02000000) -- CPU_ReadMem(64 bytes @ 0x20000000) -- Updating C cache (64 bytes @ 0x20000000) -- Read from C cache (1 bytes @ 0x20000036) - Data: 00  returns 0x01 (0002ms, 0687ms total)
T1D84 002:378 JLINK_ReadMemEx(0x20000037, 0x0001 Bytes, ..., Flags = 0x02000000) -- Read from C cache (1 bytes @ 0x20000037) - Data: 00  returns 0x01 (0000ms, 0687ms total)
T1D84 002:378 JLINK_ReadMemEx(0x2000003C, 0x0002 Bytes, ..., Flags = 0x02000000) -- Read from C cache (2 bytes @ 0x2000003C) - Data: 00 00  returns 0x02 (0000ms, 0687ms total)
T1D84 002:378 JLINK_ReadMemEx(0x20000014, 0x0002 Bytes, ..., Flags = 0x02000000) -- Read from C cache (2 bytes @ 0x20000014) - Data: 00 00  returns 0x02 (0000ms, 0687ms total)
T1D84 002:378 JLINK_ReadMemEx(0x20000000, 0x0001 Bytes, ..., Flags = 0x02000000) -- Read from C cache (1 bytes @ 0x20000000) - Data: 00  returns 0x01 (0000ms, 0687ms total)
T1D84 002:378 JLINK_ReadMemEx(0x2000011C, 0x0020 Bytes, ..., Flags = 0x02000000) -- CPU_ReadMem(64 bytes @ 0x20000100) -- Updating C cache (64 bytes @ 0x20000100) -- Read from C cache (32 bytes @ 0x2000011C) - Data: 00 00 00 00 00 00 00 00 00 00 00 00 00 00 00 00 ...  returns 0x20 (0002ms, 0689ms total)
T1D84 002:380 JLINK_ReadMemEx(0x20000060, 0x0002 Bytes, ..., Flags = 0x02000000) -- CPU_ReadMem(64 bytes @ 0x20000040) -- Updating C cache (64 bytes @ 0x20000040) -- Read from C cache (2 bytes @ 0x20000060) - Data: 00 00  returns 0x02 (0002ms, 0691ms total)
T1D84 002:382 JLINK_ReadMemEx(0x2000006C, 0x0001 Bytes, ..., Flags = 0x02000000) -- Read from C cache (1 bytes @ 0x2000006C) - Data: 00  returns 0x01 (0000ms, 0691ms total)
T1D84 002:382 JLINK_ReadMemEx(0x40000400, 0x0010 Bytes, ..., Flags = 0x02000004) -- CPU_ReadMem(16 bytes @ 0x40000400) - Data: 00 00 00 00 00 00 00 00 00 00 00 00 00 00 00 00  returns 0x10 (0002ms, 0693ms total)
T1D84 002:384 JLINK_ReadMemEx(0x40000400, 0x0004 Bytes, ..., Flags = 0x02000004) -- CPU_ReadMem(4 bytes @ 0x40000400) - Data: 00 00 00 00  returns 0x04 (0002ms, 0695ms total)
T1D84 002:386 JLINK_ReadMemEx(0x40000404, 0x0004 Bytes, ..., Flags = 0x02000004) -- CPU_ReadMem(4 bytes @ 0x40000404) - Data: 00 00 00 00  returns 0x04 (0002ms, 0697ms total)
T1D84 002:389 JLINK_ReadMemEx(0x40000408, 0x0004 Bytes, ..., Flags = 0x02000004) -- CPU_ReadMem(4 bytes @ 0x40000408) - Data: 00 00 00 00  returns 0x04 (0001ms, 0698ms total)
T1D84 002:390 JLINK_ReadMemEx(0x4000040C, 0x0004 Bytes, ..., Flags = 0x02000004) -- CPU_ReadMem(4 bytes @ 0x4000040C) - Data: 00 00 00 00  returns 0x04 (0001ms, 0699ms total)
T1D84 002:391 JLINK_ReadMemEx(0x40000410, 0x0004 Bytes, ..., Flags = 0x02000004) -- CPU_ReadMem(4 bytes @ 0x40000410) - Data: 00 00 00 00  returns 0x04 (0001ms, 0700ms total)
T1D84 002:392 JLINK_ReadMemEx(0x40000410, 0x0004 Bytes, ..., Flags = 0x02000004) -- CPU_ReadMem(4 bytes @ 0x40000410) - Data: 00 00 00 00  returns 0x04 (0001ms, 0701ms total)
T1D84 002:393 JLINK_ReadMemEx(0x40000418, 0x0014 Bytes, ..., Flags = 0x02000004) -- CPU_ReadMem(20 bytes @ 0x40000418) - Data: 00 00 00 00 00 00 00 00 00 00 00 00 00 00 00 00 ...  returns 0x14 (0001ms, 0702ms total)
T1D84 002:394 JLINK_ReadMemEx(0x40000418, 0x0004 Bytes, ..., Flags = 0x02000004) -- CPU_ReadMem(4 bytes @ 0x40000418) - Data: 00 00 00 00  returns 0x04 (0001ms, 0703ms total)
T1D84 002:395 JLINK_ReadMemEx(0x4000041C, 0x0004 Bytes, ..., Flags = 0x02000004) -- CPU_ReadMem(4 bytes @ 0x4000041C) - Data: 00 00 00 00  returns 0x04 (0001ms, 0704ms total)
T1D84 002:396 JLINK_ReadMemEx(0x40000420, 0x0004 Bytes, ..., Flags = 0x02000004) -- CPU_ReadMem(4 bytes @ 0x40000420) - Data: 00 00 00 00  returns 0x04 (0001ms, 0705ms total)
T1D84 002:397 JLINK_ReadMemEx(0x40000424, 0x0004 Bytes, ..., Flags = 0x02000004) -- CPU_ReadMem(4 bytes @ 0x40000424) - Data: 00 00 00 00  returns 0x04 (0001ms, 0706ms total)
T1D84 002:398 JLINK_ReadMemEx(0x40000428, 0x0004 Bytes, ..., Flags = 0x02000004) -- CPU_ReadMem(4 bytes @ 0x40000428) - Data: 00 00 00 00  returns 0x04 (0001ms, 0707ms total)
T1D84 002:400 JLINK_ReadMemEx(0x4000042C, 0x0004 Bytes, ..., Flags = 0x02000004) -- CPU_ReadMem(4 bytes @ 0x4000042C) - Data: 00 00 00 00  returns 0x04 (0001ms, 0708ms total)
T1D84 002:401 JLINK_ReadMemEx(0x4000042C, 0x0004 Bytes, ..., Flags = 0x02000004) -- CPU_ReadMem(4 bytes @ 0x4000042C) - Data: 00 00 00 00  returns 0x04 (0001ms, 0709ms total)
T1D84 002:402 JLINK_ReadMemEx(0x40000434, 0x000C Bytes, ..., Flags = 0x02000004) -- CPU_ReadMem(12 bytes @ 0x40000434) - Data: 00 00 00 00 00 00 00 00 00 00 00 00  returns 0x0C (0001ms, 0710ms total)
T1D84 002:403 JLINK_ReadMemEx(0x40000434, 0x0004 Bytes, ..., Flags = 0x02000004) -- CPU_ReadMem(4 bytes @ 0x40000434) - Data: 00 00 00 00  returns 0x04 (0001ms, 0711ms total)
T1D84 002:404 JLINK_ReadMemEx(0x40000438, 0x0004 Bytes, ..., Flags = 0x02000004) -- CPU_ReadMem(4 bytes @ 0x40000438) - Data: 00 00 00 00  returns 0x04 (0002ms, 0713ms total)
T1D84 002:406 JLINK_ReadMemEx(0x4000043C, 0x0004 Bytes, ..., Flags = 0x02000004) -- CPU_ReadMem(4 bytes @ 0x4000043C) - Data: 00 00 00 00  returns 0x04 (0001ms, 0714ms total)
T1D84 002:407 JLINK_ReadMemEx(0x40000440, 0x0004 Bytes, ..., Flags = 0x02000004) -- CPU_ReadMem(4 bytes @ 0x40000440) - Data: 00 00 00 00  returns 0x04 (0001ms, 0715ms total)
T1D84 002:408 JLINK_ReadMemEx(0x40000440, 0x0004 Bytes, ..., Flags = 0x02000004) -- CPU_ReadMem(4 bytes @ 0x40000440) - Data: 00 00 00 00  returns 0x04 (0002ms, 0717ms total)
T1D84 002:411 JLINK_ReadMemEx(0x40000448, 0x0004 Bytes, ..., Flags = 0x02000004) -- CPU_ReadMem(4 bytes @ 0x40000448) - Data: 00 00 00 00  returns 0x04 (0001ms, 0718ms total)
T1D84 002:412 JLINK_ReadMemEx(0x40000448, 0x0004 Bytes, ..., Flags = 0x02000004) -- CPU_ReadMem(4 bytes @ 0x40000448) - Data: 00 00 00 00  returns 0x04 (0001ms, 0719ms total)
T1D84 002:413 JLINK_ReadMemEx(0x4000044C, 0x0004 Bytes, ..., Flags = 0x02000004) -- CPU_ReadMem(4 bytes @ 0x4000044C) - Data: 00 00 00 00  returns 0x04 (0001ms, 0720ms total)
T1D84 002:414 JLINK_ReadMemEx(0x4000044C, 0x0004 Bytes, ..., Flags = 0x02000004) -- CPU_ReadMem(4 bytes @ 0x4000044C) - Data: 00 00 00 00  returns 0x04 (0001ms, 0721ms total)
T1D84 002:416 JLINK_ReadMemEx(0x40001000, 0x0004 Bytes, ..., Flags = 0x02000004) -- CPU_ReadMem(4 bytes @ 0x40001000) - Data: 00 00 00 00  returns 0x04 (0001ms, 0722ms total)
T1D84 002:417 JLINK_ReadMemEx(0x40001000, 0x0004 Bytes, ..., Flags = 0x02000004) -- CPU_ReadMem(4 bytes @ 0x40001000) - Data: 00 00 00 00  returns 0x04 (0001ms, 0723ms total)
T1D84 002:418 JLINK_ReadMemEx(0x40001004, 0x0004 Bytes, ..., Flags = 0x02000004) -- CPU_ReadMem(4 bytes @ 0x40001004) - Data: 00 00 00 00  returns 0x04 (0001ms, 0724ms total)
T1D84 002:419 JLINK_ReadMemEx(0x40001004, 0x0004 Bytes, ..., Flags = 0x02000004) -- CPU_ReadMem(4 bytes @ 0x40001004) - Data: 00 00 00 00  returns 0x04 (0001ms, 0725ms total)
T1D84 002:420 JLINK_ReadMemEx(0x4000100C, 0x0004 Bytes, ..., Flags = 0x02000004) -- CPU_ReadMem(4 bytes @ 0x4000100C) - Data: 00 00 00 00  returns 0x04 (0001ms, 0726ms total)
T1D84 002:422 JLINK_ReadMemEx(0x4000100C, 0x0004 Bytes, ..., Flags = 0x02000004) -- CPU_ReadMem(4 bytes @ 0x4000100C) - Data: 00 00 00 00  returns 0x04 (0001ms, 0727ms total)
T1D84 002:423 JLINK_ReadMemEx(0x40001010, 0x0004 Bytes, ..., Flags = 0x02000004) -- CPU_ReadMem(4 bytes @ 0x40001010) - Data: 00 00 00 00  returns 0x04 (0001ms, 0728ms total)
T1D84 002:424 JLINK_ReadMemEx(0x40001010, 0x0004 Bytes, ..., Flags = 0x02000004) -- CPU_ReadMem(4 bytes @ 0x40001010) - Data: 00 00 00 00  returns 0x04 (0001ms, 0729ms total)
T1D84 002:425 JLINK_ReadMemEx(0x40001024, 0x0008 Bytes, ..., Flags = 0x02000004) -- CPU_ReadMem(8 bytes @ 0x40001024) - Data: 00 00 00 00 00 00 00 00  returns 0x08 (0001ms, 0730ms total)
T1D84 002:426 JLINK_ReadMemEx(0x40001024, 0x0004 Bytes, ..., Flags = 0x02000004) -- CPU_ReadMem(4 bytes @ 0x40001024) - Data: 00 00 00 00  returns 0x04 (0001ms, 0731ms total)
T1D84 002:427 JLINK_ReadMemEx(0x40001028, 0x0004 Bytes, ..., Flags = 0x02000004) -- CPU_ReadMem(4 bytes @ 0x40001028) - Data: 00 00 00 00  returns 0x04 (0001ms, 0732ms total)
T1D84 002:428 JLINK_ReadMemEx(0x4000102C, 0x0004 Bytes, ..., Flags = 0x02000004) -- CPU_ReadMem(4 bytes @ 0x4000102C) - Data: 00 00 00 00  returns 0x04 (0001ms, 0733ms total)
T1D84 002:429 JLINK_ReadMemEx(0x4000102C, 0x0004 Bytes, ..., Flags = 0x02000004) -- CPU_ReadMem(4 bytes @ 0x4000102C) - Data: 00 00 00 00  returns 0x04 (0001ms, 0734ms total)
T1D84 002:444 JLINK_ReadMemEx(0x080046E0, 0x003C Bytes, ..., Flags = 0x02000000) -- CPU_ReadMem(128 bytes @ 0x080046C0) -- Updating C cache (128 bytes @ 0x080046C0) -- Read from C cache (60 bytes @ 0x080046E0) - Data: 14 98 00 78 18 B1 5A 46 17 99 90 47 6D 1C E0 03 ...  returns 0x3C (0003ms, 0737ms total)
T1D84 002:447 JLINK_ReadMemEx(0x0800471C, 0x003C Bytes, ..., Flags = 0x02000000) -- CPU_ReadMem(64 bytes @ 0x08004740) -- Updating C cache (64 bytes @ 0x08004740) -- Read from C cache (60 bytes @ 0x0800471C) - Data: 5A 46 90 47 04 98 05 F1 01 05 40 1C 04 90 01 98 ...  returns 0x3C (0002ms, 0739ms total)
T1D84 002:449 JLINK_ReadMemEx(0x08004758, 0x003C Bytes, ..., Flags = 0x02000000) -- CPU_ReadMem(64 bytes @ 0x08004780) -- Updating C cache (64 bytes @ 0x08004780) -- Read from C cache (60 bytes @ 0x08004758) - Data: A8 F1 01 08 F4 DC 5B 46 21 46 17 9A 05 98 AB E6 ...  returns 0x3C (0002ms, 0741ms total)
T1D84 002:451 JLINK_ReadMemEx(0x08004794, 0x003C Bytes, ..., Flags = 0x02000000) -- CPU_ReadMem(64 bytes @ 0x080047C0) -- Updating C cache (64 bytes @ 0x080047C0) -- Read from C cache (60 bytes @ 0x08004794) - Data: BD E8 F0 81 2D E9 F0 41 04 46 00 25 1E 46 90 46 ...  returns 0x3C (0001ms, 0742ms total)
T1D84 002:453 JLINK_ReadMemEx(0x080047D0, 0x0030 Bytes, ..., Flags = 0x02000000) -- Read from C cache (48 bytes @ 0x080047D0) - Data: 69 46 02 48 FD F7 16 FF 00 98 1C BD 88 03 00 20 ...  returns 0x30 (0000ms, 0742ms total)
T1D84 002:453 JLINK_ReadMemEx(0x08004800, 0x000C Bytes, ..., Flags = 0x02000000) -- CPU_ReadMem(64 bytes @ 0x08004800) -- Updating C cache (64 bytes @ 0x08004800) -- Read from C cache (12 bytes @ 0x08004800) - Data: FE F7 FE FA E5 48 FD F7 C1 FC 09 22  returns 0x0C (0002ms, 0744ms total)
T1D84 005:218 JLINK_ReadMemEx(0x2001B9B8, 0x0008 Bytes, ..., Flags = 0x02000000) -- CPU_ReadMem(64 bytes @ 0x2001B980) -- Updating C cache (64 bytes @ 0x2001B980) -- Read from C cache (8 bytes @ 0x2001B9B8) - Data: 00 00 00 00 00 00 00 00  returns 0x08 (0001ms, 0745ms total)
T1D84 005:220 JLINK_ReadMemEx(0x2001B9C0, 0x0008 Bytes, ..., Flags = 0x02000000) -- CPU_ReadMem(64 bytes @ 0x2001B9C0) -- Updating C cache (64 bytes @ 0x2001B9C0) -- Read from C cache (8 bytes @ 0x2001B9C0) - Data: 00 00 00 00 00 00 00 00  returns 0x08 (0002ms, 0747ms total)
T1D84 005:222 JLINK_ReadMemEx(0x2001B9C8, 0x0008 Bytes, ..., Flags = 0x02000000) -- Read from C cache (8 bytes @ 0x2001B9C8) - Data: 00 00 00 00 00 00 00 00  returns 0x08 (0000ms, 0747ms total)
T1D84 005:223 JLINK_ReadMemEx(0x2001B9D0, 0x0008 Bytes, ..., Flags = 0x02000000) -- Read from C cache (8 bytes @ 0x2001B9D0) - Data: 00 00 00 00 00 00 00 00  returns 0x08 (0000ms, 0747ms total)
T1D84 005:223 JLINK_ReadMemEx(0x2001B9D8, 0x0008 Bytes, ..., Flags = 0x02000000) -- Read from C cache (8 bytes @ 0x2001B9D8) - Data: 00 00 00 00 00 00 00 00  returns 0x08 (0000ms, 0747ms total)
T1D84 005:223 JLINK_ReadMemEx(0x2001B9E0, 0x0008 Bytes, ..., Flags = 0x02000000) -- Read from C cache (8 bytes @ 0x2001B9E0) - Data: 00 00 00 00 00 00 00 00  returns 0x08 (0000ms, 0747ms total)
T1D84 005:223 JLINK_ReadMemEx(0x2001B9E8, 0x0008 Bytes, ..., Flags = 0x02000000) -- Read from C cache (8 bytes @ 0x2001B9E8) - Data: 00 00 00 00 00 00 00 00  returns 0x08 (0000ms, 0747ms total)
T1D84 005:223 JLINK_ReadMemEx(0x2001B9F0, 0x0008 Bytes, ..., Flags = 0x02000000) -- Read from C cache (8 bytes @ 0x2001B9F0) - Data: 00 00 00 00 00 00 00 00  returns 0x08 (0000ms, 0747ms total)
T1D84 005:223 JLINK_ReadMemEx(0x2001B9F8, 0x0008 Bytes, ..., Flags = 0x02000000) -- Read from C cache (8 bytes @ 0x2001B9F8) - Data: 00 00 00 00 00 00 00 00  returns 0x08 (0000ms, 0747ms total)
T1D84 005:733 JLINK_ReadMemEx(0x2001B990, 0x0004 Bytes, ..., Flags = 0x02000000) -- Read from C cache (4 bytes @ 0x2001B990) - Data: 00 00 00 00  returns 0x04 (0000ms, 0747ms total)
T1D84 005:733 JLINK_ReadMemEx(0x2001B994, 0x0004 Bytes, ..., Flags = 0x02000000) -- Read from C cache (4 bytes @ 0x2001B994) - Data: 00 00 00 00  returns 0x04 (0000ms, 0747ms total)
T1D84 005:733 JLINK_ReadMemEx(0x2001B998, 0x0004 Bytes, ..., Flags = 0x02000000) -- Read from C cache (4 bytes @ 0x2001B998) - Data: 00 00 00 00  returns 0x04 (0000ms, 0747ms total)
T1D84 005:733 JLINK_ReadMemEx(0x2001B99C, 0x0004 Bytes, ..., Flags = 0x02000000) -- Read from C cache (4 bytes @ 0x2001B99C) - Data: 00 00 00 00  returns 0x04 (0000ms, 0747ms total)
T1D84 005:733 JLINK_ReadMemEx(0x2001B9A0, 0x0004 Bytes, ..., Flags = 0x02000000) -- Read from C cache (4 bytes @ 0x2001B9A0) - Data: 00 00 00 00  returns 0x04 (0000ms, 0747ms total)
T1D84 005:733 JLINK_ReadMemEx(0x2001B9A4, 0x0004 Bytes, ..., Flags = 0x02000000) -- Read from C cache (4 bytes @ 0x2001B9A4) - Data: 00 00 00 00  returns 0x04 (0000ms, 0747ms total)
T1D84 005:733 JLINK_ReadMemEx(0x2001B9A8, 0x0004 Bytes, ..., Flags = 0x02000000) -- Read from C cache (4 bytes @ 0x2001B9A8) - Data: 00 00 00 00  returns 0x04 (0000ms, 0747ms total)
T1D84 005:733 JLINK_ReadMemEx(0x2001B9AC, 0x0004 Bytes, ..., Flags = 0x02000000) -- Read from C cache (4 bytes @ 0x2001B9AC) - Data: 00 00 00 00  returns 0x04 (0000ms, 0747ms total)
T1D84 005:733 JLINK_ReadMemEx(0x2001B9B0, 0x0004 Bytes, ..., Flags = 0x02000000) -- Read from C cache (4 bytes @ 0x2001B9B0) - Data: 00 00 00 00  returns 0x04 (0000ms, 0747ms total)
T2170 007:481 JLINK_ReadMemEx(0x080047E0, 0x0002 Bytes, ..., Flags = 0x02000000) -- Read from C cache (2 bytes @ 0x080047E0) - Data: FC F7  returns 0x02 (0000ms, 0747ms total)
T2170 007:481 JLINK_ReadMemU32(0xE0001004, 0x0001 Items, ...) - Data: 2D CE 03 00  returns 0x01 (0000ms, 0747ms total)
T2170 007:481 JLINK_WriteU32(0xE0001004, 0x0003CFFF)  returns 0x00 (0000ms, 0747ms total)
T2170 007:481 JLINK_WriteU32(0xE0001000, 0x00410A1F)  returns 0x00 (0000ms, 0747ms total)
T2170 007:481 JLINK_WriteU32(0xE0000E80, 0x0001000F)  returns 0x00 (0000ms, 0747ms total)
T2170 007:481 JLINK_SWO_Control(JLINKARM_SWO_CMD_GET_NUM_BYTES, ...)  returns 0x00 (0000ms, 0747ms total)
T2170 007:481 JLINK_Go() -- CPU_WriteMem(4 bytes @ 0xE0001000) -- CPU_ReadMem(4 bytes @ 0xE0001000) -- CPU_WriteMem(4 bytes @ 0xE0000E80) -- CPU_WriteMem(4 bytes @ 0xE0002008) -- CPU_WriteMem(4 bytes @ 0xE0001004) (0009ms, 0756ms total)
T2170 007:491 JLINK_WriteU32(0xE0001000, 0x00010A1F) -- CPU is running -- CPU_WriteMem(4 bytes @ 0xE0001000)  returns 0x00 (0001ms, 0757ms total)
T2170 007:592 JLINK_SWO_Read(..., Offset = 0x00, NumBytes = 0x400000) - Data:  NumBytesRead = 0x00 (0000ms, 0757ms total)
T2170 007:594 JLINK_SWO_Control(JLINKARM_SWO_CMD_FLUSH, ...)  returns 0x00 (0000ms, 0757ms total)
T2170 007:594 JLINK_IsHalted()  returns FALSE (0002ms, 0759ms total)
T2170 007:696 JLINK_SWO_Read(..., Offset = 0x00, NumBytes = 0x400000) - Data:  NumBytesRead = 0x00 (0000ms, 0757ms total)
T2170 007:698 JLINK_SWO_Control(JLINKARM_SWO_CMD_FLUSH, ...)  returns 0x00 (0000ms, 0757ms total)
T2170 007:698 JLINK_IsHalted()  returns FALSE (0001ms, 0758ms total)
T2170 007:799 JLINK_SWO_Read(..., Offset = 0x00, NumBytes = 0x400000) - Data:  NumBytesRead = 0x00 (0000ms, 0757ms total)
T2170 007:801 JLINK_SWO_Control(JLINKARM_SWO_CMD_FLUSH, ...)  returns 0x00 (0000ms, 0757ms total)
T2170 007:801 JLINK_IsHalted()  returns FALSE (0001ms, 0758ms total)
T2170 007:902 JLINK_SWO_Read(..., Offset = 0x00, NumBytes = 0x400000) - Data:  NumBytesRead = 0x00 (0000ms, 0757ms total)
T2170 007:904 JLINK_SWO_Control(JLINKARM_SWO_CMD_FLUSH, ...)  returns 0x00 (0000ms, 0757ms total)
